
T9050 000:275 SEGGER J-Link V5.12d Log File (0001ms, 0264ms total)
T9050 000:275 DLL Compiled: Apr 26 2016 19:19:35 (0001ms, 0264ms total)
T9050 000:275 Logging started @ 2016-05-09 16:27 (0001ms, 0264ms total)
T9050 000:276 JLINK_SetWarnOutHandler(...) (0000ms, 0264ms total)
T9050 000:276 JLINK_OpenEx(...)
Firmware: J-Link OB-SAM3U128-V2-NordicSemi compiled Mar 15 2016 18:03:17
Hardware: V1.00
S/N: 682357540  returns O.K. (0264ms, 0528ms total)
T9050 000:540 JLINK_SetErrorOutHandler(...) (0000ms, 0528ms total)
T9050 000:540 JLINK_ExecCommand("ProjectFile = "C:\Users\midi\Documents\GitHub\nrf52-production-programming\tests\test_uicr_write\src\JLinkSettings.ini"", ...)  returns 0x00 (0001ms, 0529ms total)
T9050 000:541 JLINK_ExecCommand("Device = nRF52832_xxAA", ...)Device "NRF52832_XXAA" selected.  returns 0x00 (0001ms, 0530ms total)
T9050 000:542 JLINK_ExecCommand("DisableConnectionTimeout", ...)  returns 0x01 (0000ms, 0530ms total)
T9050 000:542 JLINK_GetHardwareVersion()  returns 0x2710 (0000ms, 0530ms total)
T9050 000:542 JLINK_GetDLLVersion()  returns 51204 (0000ms, 0530ms total)
T9050 000:542 JLINK_GetFirmwareString(...) (0000ms, 0530ms total)
T9050 000:545 JLINK_GetDLLVersion()  returns 51204 (0000ms, 0530ms total)
T9050 000:545 JLINK_GetCompileDateTime() (0000ms, 0530ms total)
T9050 000:546 JLINK_GetFirmwareString(...) (0000ms, 0530ms total)
T9050 000:549 JLINK_GetHardwareVersion()  returns 0x2710 (0000ms, 0530ms total)
T9050 000:550 JLINK_TIF_Select(JLINKARM_TIF_SWD)  returns 0x00 (0001ms, 0531ms total)
T9050 000:551 JLINK_SetSpeed(5000) (0001ms, 0532ms total)
T9050 000:552 JLINK_GetId() >0x108 TIF>Found SWD-DP with ID 0x2BA01477 >0x0D TIF> >0x28 TIF> >0x0D TIF> >0x28 TIF> >0x0D TIF> >0x28 TIF> >0x0D TIF> >0x28 TIF> >0x35 TIF> >0x0D TIF> >0x28 TIF> >0x0D TIF> >0x28 TIF> >0x35 TIF> >0x35 TIF> >0x35 TIF> >0x0D TIF> >0x28 TIF> >0x0D TIF> >0x28 TIF> >0x0D TIF> >0x28 TIF> >0x35 TIF> >0x35 TIF> >0x0D TIF> >0x28 TIF> >0x35 TIF> >0x35 TIF>Found Cortex-M4 r0p1, Little endian. -- CPU_ReadMem(4 bytes @ 0xE000EDF0) -- CPU_ReadMem(4 bytes @ 0xE0002000)
FPUnit: 6 code (BP) slots and 2 literal slots -- CPU_ReadMem(4 bytes @ 0xE000EDFC) -- CPU_ReadMem(4 bytes @ 0xE0001000) -- CPU_WriteMem(4 bytes @ 0xE0001000) -- CPU_ReadMem(4 bytes @ 0xE000ED88) -- CPU_WriteMem(4 bytes @ 0xE000ED88) -- CPU_ReadMem(4 bytes @ 0xE000ED88) -- CPU_WriteMem(4 bytes @ 0xE000ED88)CoreSight components:ROMTbl 0 @ E00FF000 -- CPU_ReadMem(16 bytes @ 0xE00FF000) -- CPU_ReadMem(16 bytes @ 0xE000EFF0) -- CPU_ReadMem(16 bytes @ 0xE000EFE0)
ROMTbl 0 [0]: FFF0F000, CID: B105E00D, PID: 000BB00C SCS -- CPU_ReadMem(16 bytes @ 0xE0001FF0) -- CPU_ReadMem(16 bytes @ 0xE0001FE0)ROMTbl 0 [1]: FFF02000, CID: B105E00D, PID: 003BB002 DWT -- CPU_ReadMem(16 bytes @ 0xE0002FF0) -- CPU_ReadMem(16 bytes @ 0xE0002FE0)ROMTbl 0 [2]: FFF03000, CID: B105E00D, PID: 002BB003 FPB -- CPU_ReadMem(16 bytes @ 0xE0000FF0) -- CPU_ReadMem(16 bytes @ 0xE0000FE0)ROMTbl 0 [3]: FFF01000, CID: B105E00D, PID: 003BB001 ITM -- CPU_ReadMem(16 bytes @ 0xE00FF010)
 -- CPU_ReadMem(16 bytes @ 0xE0040FF0) -- CPU_ReadMem(16 bytes @ 0xE0040FE0)ROMTbl 0 [4]: FFF41000, CID: B105900D, PID: 000BB9A1 TPIU -- CPU_ReadMem(16 bytes @ 0xE0041FF0) -- CPU_ReadMem(16 bytes @ 0xE0041FE0)ROMTbl 0 [5]: FFF42000, CID: B105900D, PID: 000BB925 ETM >0x35 TIF>  returns 0x2BA01477 (0034ms, 0566ms total)
T9050 000:587 JLINK_GetDLLVersion()  returns 51204 (0000ms, 0566ms total)
T9050 000:587 JLINK_CORE_GetFound()  returns 0xE0000FF (0000ms, 0566ms total)
T9050 000:587 JLINK_GetDebugInfo(0x100) -- Value=0xE00FF000  returns 0x00 (0000ms, 0566ms total)
T9050 000:587 JLINK_GetDebugInfo(0x100) -- Value=0xE00FF000  returns 0x00 (0000ms, 0566ms total)
T9050 000:587 JLINK_GetDebugInfo(0x101) -- Value=0xE0041000  returns 0x00 (0000ms, 0566ms total)
T9050 000:587 JLINK_GetDebugInfo(0x102) -- Value=0x00000000  returns 0x00 (0000ms, 0566ms total)
T9050 000:587 JLINK_GetDebugInfo(0x103) -- Value=0xE0040000  returns 0x00 (0000ms, 0566ms total)
T9050 000:587 JLINK_GetDebugInfo(0x104) -- Value=0xE0000000  returns 0x00 (0000ms, 0566ms total)
T9050 000:587 JLINK_GetDebugInfo(0x105) -- Value=0xE0001000  returns 0x00 (0000ms, 0566ms total)
T9050 000:587 JLINK_GetDebugInfo(0x106) -- Value=0xE0002000  returns 0x00 (0000ms, 0566ms total)
T9050 000:587 JLINK_GetDebugInfo(0x107) -- Value=0xE000E000  returns 0x00 (0000ms, 0566ms total)
T9050 000:587 JLINK_GetDebugInfo(0x10C) -- Value=0xE000EDF0  returns 0x00 (0000ms, 0566ms total)
T9050 000:587 JLINK_ReadMemU32(0xE000EF40, 0x0001 Items, ...) -- CPU is running -- CPU_ReadMem(4 bytes @ 0xE000EF40) - Data: 21 00 11 10  returns 0x01 (0001ms, 0567ms total)
T9050 000:588 JLINK_ReadMemU32(0xE000EF44, 0x0001 Items, ...) -- CPU is running -- CPU_ReadMem(4 bytes @ 0xE000EF44) - Data: 11 00 00 11  returns 0x01 (0001ms, 0568ms total)
T9050 000:589 JLINK_ReadMemU32(0xE000ED00, 0x0001 Items, ...) -- CPU is running -- CPU_ReadMem(4 bytes @ 0xE000ED00) - Data: 41 C2 0F 41  returns 0x01 (0001ms, 0569ms total)
T9050 000:590 JLINK_SetResetType(JLINKARM_RESET_TYPE_NORMAL)  returns JLINKARM_RESET_TYPE_NORMAL (0000ms, 0569ms total)
T9050 000:590 JLINK_Reset() -- CPU is running -- CPU_WriteMem(4 bytes @ 0xE000EDF0) -- CPU is running -- CPU_WriteMem(4 bytes @ 0xE000EDFC) >0x35 TIF> -- CPU is running -- CPU_WriteMem(4 bytes @ 0xE000ED0C) -- CPU is running -- CPU_ReadMem(4 bytes @ 0xE000EDF0) -- CPU is running -- CPU_ReadMem(4 bytes @ 0xE000EDF0) -- CPU is running -- CPU_WriteMem(4 bytes @ 0xE000EDF0) -- CPU is running -- CPU_WriteMem(4 bytes @ 0xE000EDFC) -- CPU is running -- CPU_ReadMem(4 bytes @ 0xE000EDF0)
 -- CPU_WriteMem(4 bytes @ 0xE0002000) -- CPU_ReadMem(4 bytes @ 0xE000EDFC) -- CPU_ReadMem(4 bytes @ 0xE0001000) (0026ms, 0595ms total)
T9050 000:616 JLINK_ReadReg(R15 (PC))  returns 0x000004A0 (0000ms, 0595ms total)
T9050 000:616 JLINK_ReadReg(XPSR)  returns 0x01000000 (0000ms, 0595ms total)
T9050 000:616 JLINK_Halt()  returns 0x00 (0000ms, 0595ms total)
T9050 000:616 JLINK_IsHalted()  returns TRUE (0000ms, 0595ms total)
T9050 000:616 JLINK_ReadMemU32(0xE000EDF0, 0x0001 Items, ...) -- CPU_ReadMem(4 bytes @ 0xE000EDF0) - Data: 03 00 03 00  returns 0x01 (0001ms, 0596ms total)
T9050 000:617 JLINK_WriteU32(0xE000EDF0, 0xA05F0003) -- CPU_WriteMem(4 bytes @ 0xE000EDF0)  returns 0x00 (0001ms, 0597ms total)
T9050 000:618 JLINK_WriteU32(0xE000EDFC, 0x01000000) -- CPU_WriteMem(4 bytes @ 0xE000EDFC)  returns 0x00 (0001ms, 0598ms total)
T9050 000:620 JLINK_GetHWStatus(...)  returns 0x00 (0001ms, 0599ms total)
T9050 000:622 JLINK_GetNumBPUnits(Type = 0xFFFFFF00)  returns 0x06 (0000ms, 0599ms total)
T9050 000:622 JLINK_GetNumBPUnits(Type = 0xF0)  returns 0x2000 (0000ms, 0599ms total)
T9050 000:622 JLINK_GetNumWPUnits()  returns 0x04 (0000ms, 0599ms total)
T9050 000:622 JLINK_GetSpeed()  returns 0x3E8 (0000ms, 0599ms total)
T9050 000:623 JLINK_ReadMemU32(0xE000E004, 0x0001 Items, ...) -- CPU_ReadMem(4 bytes @ 0xE000E004) - Data: 01 00 00 00  returns 0x01 (0001ms, 0600ms total)
T9050 000:624 JLINK_ReadMemU32(0xE000E004, 0x0001 Items, ...) -- CPU_ReadMem(4 bytes @ 0xE000E004) - Data: 01 00 00 00  returns 0x01 (0000ms, 0600ms total)
T9050 000:624 JLINK_WriteMem(0xE0001000, 0x001C Bytes, ...) - Data: 01 00 00 00 00 00 00 00 00 00 00 00 00 00 00 00 ... -- CPU_WriteMem(28 bytes @ 0xE0001000)  returns 0x1C (0002ms, 0602ms total)
T9050 000:626 JLINK_ReadMem (0xE0001000, 0x001C Bytes, ...) -- CPU_ReadMem(28 bytes @ 0xE0001000) - Data: 01 00 00 40 00 00 00 00 00 00 00 00 00 00 00 00 ...  returns 0x00 (0001ms, 0603ms total)
T9050 000:627 JLINK_ReadReg(R15 (PC))  returns 0x000004A0 (0000ms, 0603ms total)
T9050 000:627 JLINK_ReadReg(XPSR)  returns 0x01000000 (0000ms, 0603ms total)
T9050 000:699 JLINK_SetResetType(JLINKARM_RESET_TYPE_NORMAL)  returns JLINKARM_RESET_TYPE_NORMAL (0000ms, 0603ms total)
T9050 000:699 JLINK_Reset() -- CPU_WriteMem(4 bytes @ 0xE000EDF0) -- CPU_WriteMem(4 bytes @ 0xE000EDFC) >0x35 TIF> -- CPU_WriteMem(4 bytes @ 0xE000ED0C) -- CPU_ReadMem(4 bytes @ 0xE000EDF0) -- CPU_ReadMem(4 bytes @ 0xE000EDF0) -- CPU_WriteMem(4 bytes @ 0xE000EDF0) -- CPU_WriteMem(4 bytes @ 0xE000EDFC) -- CPU is running -- CPU_ReadMem(4 bytes @ 0xE000EDF0) -- CPU_WriteMem(4 bytes @ 0xE0002000) -- CPU_ReadMem(4 bytes @ 0xE000EDFC) -- CPU_ReadMem(4 bytes @ 0xE0001000) (0027ms, 0630ms total)
T9050 000:726 JLINK_ReadReg(R15 (PC))  returns 0x000004A0 (0001ms, 0631ms total)
T9050 000:727 JLINK_ReadReg(XPSR)  returns 0x01000000 (0000ms, 0631ms total)
T9050 000:727 JLINK_ReadMemU32(0xE0001004, 0x0001 Items, ...) -- CPU_ReadMem(4 bytes @ 0xE0001004) - Data: 08 00 00 00  returns 0x01 (0000ms, 0631ms total)
T9050 000:810 JLINK_ReadMem (0x00000400, 0x003C Bytes, ...) -- CPU_ReadMem(64 bytes @ 0x00000400) -- Updating C cache (64 bytes @ 0x00000400) -- Read from C cache (60 bytes @ 0x00000400) - Data: 00 F0 02 F8 00 F0 3C F8 0A A0 90 E8 00 0C 82 44 ...  returns 0x00 (0001ms, 0632ms total)
T9050 000:811 JLINK_ReadMem (0x0000043C, 0x003C Bytes, ...) -- CPU_ReadMem(64 bytes @ 0x00000440) -- Updating C cache (64 bytes @ 0x00000440) -- Read from C cache (60 bytes @ 0x0000043C) - Data: 10 3A 24 BF 78 C8 78 C1 FA D8 52 07 24 BF 30 C8 ...  returns 0x00 (0002ms, 0634ms total)
T9050 000:813 JLINK_ReadMem (0x00000478, 0x003C Bytes, ...) -- CPU_ReadMem(64 bytes @ 0x00000480) -- Updating C cache (64 bytes @ 0x00000480) -- Read from C cache (60 bytes @ 0x00000478) - Data: 0D FA 1F BD 10 B5 10 BD 00 F0 31 F8 11 46 FF F7 ...  returns 0x00 (0001ms, 0635ms total)
T786C 001:411 JLINK_SetBPEx(Addr = 0x00000890, Type = 0xFFFFFFF2)  returns 0x00000001 (0000ms, 0635ms total)
T786C 001:411 JLINK_Go() -- CPU_WriteMem(4 bytes @ 0xE0002000) -- CPU_ReadMem(4 bytes @ 0xE0001000) -- CPU_WriteMem(4 bytes @ 0xE0002008) -- CPU_WriteMem(4 bytes @ 0xE000200C) -- CPU_WriteMem(4 bytes @ 0xE0002010) -- CPU_WriteMem(4 bytes @ 0xE0002014) -- CPU_WriteMem(4 bytes @ 0xE0002018) -- CPU_WriteMem(4 bytes @ 0xE000201C) -- CPU_WriteMem(4 bytes @ 0xE0001004) (0006ms, 0641ms total)
T786C 001:517 JLINK_IsHalted()  returns TRUE (0007ms, 0648ms total)
T786C 001:524 JLINK_Halt()  returns 0x00 (0000ms, 0641ms total)
T786C 001:524 JLINK_IsHalted()  returns TRUE (0000ms, 0641ms total)
T786C 001:524 JLINK_IsHalted()  returns TRUE (0000ms, 0641ms total)
T786C 001:524 JLINK_IsHalted()  returns TRUE (0000ms, 0641ms total)
T786C 001:524 JLINK_ReadReg(R15 (PC))  returns 0x00000890 (0000ms, 0641ms total)
T786C 001:524 JLINK_ReadReg(XPSR)  returns 0x21000000 (0000ms, 0641ms total)
T786C 001:524 JLINK_ClrBPEx(BPHandle = 0x00000001)  returns 0x00 (0000ms, 0641ms total)
T786C 001:524 JLINK_ReadMemU32(0xE000ED30, 0x0001 Items, ...) -- CPU_ReadMem(4 bytes @ 0xE000ED30) - Data: 02 00 00 00  returns 0x01 (0001ms, 0642ms total)
T786C 001:525 JLINK_ReadMemU32(0xE0001028, 0x0001 Items, ...) -- CPU_ReadMem(4 bytes @ 0xE0001028) - Data: 00 00 00 00  returns 0x01 (0001ms, 0643ms total)
T786C 001:526 JLINK_ReadMemU32(0xE0001038, 0x0001 Items, ...) -- CPU_ReadMem(4 bytes @ 0xE0001038) - Data: 00 02 00 00  returns 0x01 (0002ms, 0645ms total)
T786C 001:528 JLINK_ReadMemU32(0xE0001048, 0x0001 Items, ...) -- CPU_ReadMem(4 bytes @ 0xE0001048) - Data: 00 00 00 00  returns 0x01 (0001ms, 0646ms total)
T786C 001:529 JLINK_ReadMemU32(0xE0001058, 0x0001 Items, ...) -- CPU_ReadMem(4 bytes @ 0xE0001058) - Data: 00 00 00 00  returns 0x01 (0001ms, 0647ms total)
T786C 001:530 JLINK_ReadReg(R0)  returns 0x20000068 (0000ms, 0647ms total)
T786C 001:530 JLINK_ReadReg(R1)  returns 0x20002068 (0000ms, 0647ms total)
T786C 001:530 JLINK_ReadReg(R2)  returns 0x20002068 (0000ms, 0647ms total)
T786C 001:530 JLINK_ReadReg(R3)  returns 0x20002068 (0000ms, 0647ms total)
T786C 001:530 JLINK_ReadReg(R4)  returns 0x00000000 (0000ms, 0647ms total)
T786C 001:530 JLINK_ReadReg(R5)  returns 0x20000004 (0000ms, 0647ms total)
T786C 001:530 JLINK_ReadReg(R6)  returns 0x00000000 (0000ms, 0647ms total)
T786C 001:530 JLINK_ReadReg(R7)  returns 0x00000000 (0000ms, 0647ms total)
T786C 001:530 JLINK_ReadReg(R8)  returns 0x00000000 (0000ms, 0647ms total)
T786C 001:530 JLINK_ReadReg(R9)  returns 0x00000000 (0000ms, 0647ms total)
T786C 001:530 JLINK_ReadReg(R10)  returns 0x000008C0 (0000ms, 0647ms total)
T786C 001:530 JLINK_ReadReg(R11)  returns 0x00000000 (0000ms, 0647ms total)
T786C 001:530 JLINK_ReadReg(R12)  returns 0x20000044 (0000ms, 0647ms total)
T786C 001:531 JLINK_ReadReg(R13 (SP))  returns 0x20004068 (0000ms, 0648ms total)
T786C 001:531 JLINK_ReadReg(R14)  returns 0x0000048F (0000ms, 0648ms total)
T786C 001:531 JLINK_ReadReg(R15 (PC))  returns 0x00000890 (0000ms, 0648ms total)
T786C 001:531 JLINK_ReadReg(XPSR)  returns 0x21000000 (0000ms, 0648ms total)
T786C 001:531 JLINK_ReadReg(MSP)  returns 0x20004068 (0000ms, 0648ms total)
T786C 001:531 JLINK_ReadReg(PSP)  returns 0x00000000 (0000ms, 0648ms total)
T786C 001:531 JLINK_ReadReg(CFBP)  returns 0x04000000 (0000ms, 0648ms total)
T786C 001:531 JLINK_ReadReg(FPSCR)  returns 0x03000000 (0010ms, 0658ms total)
T786C 001:541 JLINK_ReadReg(FPS0)  returns 0x00000000 (0000ms, 0658ms total)
T786C 001:541 JLINK_ReadReg(FPS1)  returns 0x00000000 (0000ms, 0658ms total)
T786C 001:541 JLINK_ReadReg(FPS2)  returns 0x00000000 (0000ms, 0658ms total)
T786C 001:541 JLINK_ReadReg(FPS3)  returns 0x00000000 (0000ms, 0658ms total)
T786C 001:541 JLINK_ReadReg(FPS4)  returns 0x00000000 (0000ms, 0658ms total)
T786C 001:542 JLINK_ReadReg(FPS5)  returns 0x00000000 (0000ms, 0659ms total)
T786C 001:542 JLINK_ReadReg(FPS6)  returns 0x00000000 (0000ms, 0659ms total)
T786C 001:542 JLINK_ReadReg(FPS7)  returns 0x00000000 (0000ms, 0659ms total)
T786C 001:542 JLINK_ReadReg(FPS8)  returns 0x00000000 (0000ms, 0659ms total)
T786C 001:542 JLINK_ReadReg(FPS9)  returns 0x00000000 (0000ms, 0659ms total)
T786C 001:542 JLINK_ReadReg(FPS10)  returns 0x00000000 (0000ms, 0659ms total)
T786C 001:542 JLINK_ReadReg(FPS11)  returns 0x00000000 (0000ms, 0659ms total)
T786C 001:542 JLINK_ReadReg(FPS12)  returns 0x00000000 (0000ms, 0659ms total)
T786C 001:542 JLINK_ReadReg(FPS13)  returns 0x00000000 (0000ms, 0659ms total)
T786C 001:542 JLINK_ReadReg(FPS14)  returns 0x00000000 (0000ms, 0659ms total)
T786C 001:542 JLINK_ReadReg(FPS15)  returns 0x00000000 (0000ms, 0659ms total)
T786C 001:542 JLINK_ReadReg(FPS16)  returns 0x00000000 (0000ms, 0659ms total)
T786C 001:542 JLINK_ReadReg(FPS17)  returns 0x00000000 (0000ms, 0659ms total)
T786C 001:542 JLINK_ReadReg(FPS18)  returns 0x00000000 (0000ms, 0659ms total)
T786C 001:542 JLINK_ReadReg(FPS19)  returns 0x00000000 (0000ms, 0659ms total)
T786C 001:542 JLINK_ReadReg(FPS20)  returns 0x00000000 (0000ms, 0659ms total)
T786C 001:542 JLINK_ReadReg(FPS21)  returns 0x00000000 (0000ms, 0659ms total)
T786C 001:542 JLINK_ReadReg(FPS22)  returns 0x00000000 (0000ms, 0659ms total)
T786C 001:542 JLINK_ReadReg(FPS23)  returns 0x00000000 (0000ms, 0659ms total)
T786C 001:542 JLINK_ReadReg(FPS24)  returns 0x00000000 (0000ms, 0659ms total)
T786C 001:542 JLINK_ReadReg(FPS25)  returns 0x00000000 (0000ms, 0659ms total)
T786C 001:542 JLINK_ReadReg(FPS26)  returns 0x00000000 (0000ms, 0659ms total)
T786C 001:542 JLINK_ReadReg(FPS27)  returns 0x00000000 (0000ms, 0659ms total)
T786C 001:542 JLINK_ReadReg(FPS28)  returns 0x00000000 (0000ms, 0659ms total)
T786C 001:542 JLINK_ReadReg(FPS29)  returns 0x00000000 (0000ms, 0659ms total)
T786C 001:542 JLINK_ReadReg(FPS30)  returns 0x00000000 (0000ms, 0659ms total)
T786C 001:542 JLINK_ReadReg(FPS31)  returns 0x00000000 (0000ms, 0659ms total)
T9050 001:543 JLINK_ReadMem (0x00000000, 0x0004 Bytes, ...) -- CPU_ReadMem(64 bytes @ 0x00000000) -- Updating C cache (64 bytes @ 0x00000000) -- Read from C cache (4 bytes @ 0x00000000) - Data: 68 40 00 20  returns 0x00 (0002ms, 0661ms total)
T9050 001:548 JLINK_ReadMemU32(0xE0001004, 0x0001 Items, ...) -- CPU_ReadMem(4 bytes @ 0xE0001004) - Data: E9 24 00 00  returns 0x01 (0001ms, 0662ms total)
T9050 001:551 JLINK_ReadMem (0x00000790, 0x003C Bytes, ...) -- CPU_ReadMem(128 bytes @ 0x00000780) -- Updating C cache (128 bytes @ 0x00000780) -- Read from C cache (60 bytes @ 0x00000790) - Data: 05 48 08 30 00 78 00 F0 F0 00 30 28 01 D1 01 20 ...  returns 0x00 (0003ms, 0665ms total)
T9050 001:554 JLINK_ReadMem (0x000007CC, 0x0034 Bytes, ...) -- Read from C cache (52 bytes @ 0x000007CC) - Data: 01 D1 01 20 70 47 0A 48 08 30 00 78 00 F0 F0 00 ...  returns 0x00 (0000ms, 0665ms total)
T9050 001:554 JLINK_ReadMem (0x00000800, 0x0008 Bytes, ...) -- CPU_ReadMem(64 bytes @ 0x00000800) -- Updating C cache (64 bytes @ 0x00000800) -- Read from C cache (8 bytes @ 0x00000800) - Data: 0A 48 00 78 06 28 0E D1  returns 0x00 (0001ms, 0666ms total)
T9050 001:555 JLINK_ReadMem (0x00000808, 0x003C Bytes, ...) -- CPU_ReadMem(64 bytes @ 0x00000840) -- Updating C cache (64 bytes @ 0x00000840) -- Read from C cache (60 bytes @ 0x00000808) - Data: 08 48 00 1D 00 78 00 F0 0F 00 40 B9 05 48 08 30 ...  returns 0x00 (0002ms, 0668ms total)
T9050 001:557 JLINK_ReadMem (0x00000844, 0x003C Bytes, ...) -- Read from C cache (60 bytes @ 0x00000844) - Data: 05 48 08 30 00 78 00 F0 F0 00 30 28 01 D1 01 20 ...  returns 0x00 (0000ms, 0668ms total)
T9050 001:557 JLINK_ReadMem (0x00000880, 0x003C Bytes, ...) -- CPU_ReadMem(64 bytes @ 0x00000880) -- Updating C cache (64 bytes @ 0x00000880) -- Read from C cache (60 bytes @ 0x00000880) - Data: 01 D1 01 20 70 47 00 20 FC E7 00 00 E0 0F 00 F0 ...  returns 0x00 (0002ms, 0670ms total)
T9050 007:572 JLINK_ReadMem (0x10001080, 0x0176 Bytes, ...) -- CPU_ReadMem(384 bytes @ 0x10001080) -- Updating C cache (384 bytes @ 0x10001080) -- Read from C cache (374 bytes @ 0x10001080) - Data: EF BE AD DE FF FF FF FF FF FF FF FF FF FF FF FF ...  returns 0x00 (0006ms, 0676ms total)
T786C 010:344 JLINK_Go() -- CPU_ReadMem(4 bytes @ 0xE0001000) -- CPU_WriteMem(4 bytes @ 0xE0002008) (0005ms, 0681ms total)
T786C 010:449 JLINK_IsHalted()  returns FALSE (0001ms, 0682ms total)
T786C 010:550 JLINK_IsHalted()  returns FALSE (0000ms, 0681ms total)
T786C 010:650 JLINK_IsHalted()  returns FALSE (0001ms, 0682ms total)
T786C 010:751 JLINK_IsHalted()  returns FALSE (0000ms, 0681ms total)
T786C 010:851 JLINK_IsHalted()  returns FALSE (0000ms, 0681ms total)
T786C 010:951 JLINK_ReadMemU32(0xE0001004, 0x0001 Items, ...) -- CPU is running -- CPU_ReadMem(4 bytes @ 0xE0001004) - Data: 40 0E 4C 02  returns 0x01 (0001ms, 0682ms total)
T9050 010:952 JLINK_ReadMem (0x10001080, 0x0176 Bytes, ...) -- CPU is running -- CPU_ReadMem(374 bytes @ 0x10001080) - Data: EF BE AD DE FF FF FF FF FF FF FF FF FF FF FF FF ...  returns 0x00 (0006ms, 0688ms total)
T786C 010:962 JLINK_IsHalted()  returns FALSE (0001ms, 0689ms total)
T786C 011:063 JLINK_IsHalted()  returns FALSE (0001ms, 0689ms total)
T786C 011:164 JLINK_IsHalted()  returns FALSE (0000ms, 0688ms total)
T786C 011:264 JLINK_IsHalted()  returns FALSE (0000ms, 0688ms total)
T786C 011:364 JLINK_IsHalted()  returns FALSE (0001ms, 0689ms total)
T786C 011:465 JLINK_Halt()  returns 0x00 (0007ms, 0695ms total)
T786C 011:472 JLINK_IsHalted()  returns TRUE (0000ms, 0695ms total)
T786C 011:472 JLINK_IsHalted()  returns TRUE (0000ms, 0695ms total)
T786C 011:472 JLINK_IsHalted()  returns TRUE (0000ms, 0695ms total)
T786C 011:472 JLINK_ReadReg(R15 (PC))  returns 0x00000892 (0000ms, 0695ms total)
T786C 011:472 JLINK_ReadReg(XPSR)  returns 0x21000000 (0000ms, 0695ms total)
T786C 011:472 JLINK_ReadMemU32(0xE000ED30, 0x0001 Items, ...) -- CPU_ReadMem(4 bytes @ 0xE000ED30) - Data: 01 00 00 00  returns 0x01 (0001ms, 0696ms total)
T786C 011:473 JLINK_ReadMemU32(0xE0001028, 0x0001 Items, ...) -- CPU_ReadMem(4 bytes @ 0xE0001028) - Data: 00 00 00 00  returns 0x01 (0002ms, 0698ms total)
T786C 011:475 JLINK_ReadMemU32(0xE0001038, 0x0001 Items, ...) -- CPU_ReadMem(4 bytes @ 0xE0001038) - Data: 00 02 00 00  returns 0x01 (0001ms, 0699ms total)
T786C 011:476 JLINK_ReadMemU32(0xE0001048, 0x0001 Items, ...) -- CPU_ReadMem(4 bytes @ 0xE0001048) - Data: 00 00 00 00  returns 0x01 (0001ms, 0700ms total)
T786C 011:477 JLINK_ReadMemU32(0xE0001058, 0x0001 Items, ...) -- CPU_ReadMem(4 bytes @ 0xE0001058) - Data: 00 00 00 00  returns 0x01 (0001ms, 0701ms total)
T786C 011:479 JLINK_ReadReg(R0)  returns 0x20000068 (0000ms, 0701ms total)
T786C 011:479 JLINK_ReadReg(R1)  returns 0x20002068 (0000ms, 0701ms total)
T786C 011:479 JLINK_ReadReg(R2)  returns 0x20002068 (0000ms, 0701ms total)
T786C 011:479 JLINK_ReadReg(R3)  returns 0x20002068 (0000ms, 0701ms total)
T786C 011:479 JLINK_ReadReg(R4)  returns 0x00000000 (0000ms, 0701ms total)
T786C 011:479 JLINK_ReadReg(R5)  returns 0x20000004 (0000ms, 0701ms total)
T786C 011:479 JLINK_ReadReg(R6)  returns 0x00000000 (0000ms, 0701ms total)
T786C 011:479 JLINK_ReadReg(R7)  returns 0x00000000 (0000ms, 0701ms total)
T786C 011:479 JLINK_ReadReg(R8)  returns 0x00000000 (0000ms, 0701ms total)
T786C 011:479 JLINK_ReadReg(R9)  returns 0x00000000 (0000ms, 0701ms total)
T786C 011:479 JLINK_ReadReg(R10)  returns 0x000008C0 (0000ms, 0701ms total)
T786C 011:479 JLINK_ReadReg(R11)  returns 0x00000000 (0001ms, 0702ms total)
T786C 011:480 JLINK_ReadReg(R12)  returns 0x20000044 (0000ms, 0702ms total)
T786C 011:480 JLINK_ReadReg(R13 (SP))  returns 0x20004068 (0000ms, 0702ms total)
T786C 011:480 JLINK_ReadReg(R14)  returns 0x0000048F (0000ms, 0702ms total)
T786C 011:480 JLINK_ReadReg(R15 (PC))  returns 0x00000892 (0000ms, 0702ms total)
T786C 011:480 JLINK_ReadReg(XPSR)  returns 0x21000000 (0000ms, 0702ms total)
T786C 011:480 JLINK_ReadReg(MSP)  returns 0x20004068 (0000ms, 0702ms total)
T786C 011:480 JLINK_ReadReg(PSP)  returns 0x00000000 (0000ms, 0702ms total)
T786C 011:480 JLINK_ReadReg(CFBP)  returns 0x04000000 (0000ms, 0702ms total)
T786C 011:480 JLINK_ReadReg(FPSCR)  returns 0x03000000 (0011ms, 0713ms total)
T786C 011:491 JLINK_ReadReg(FPS0)  returns 0x00000000 (0000ms, 0713ms total)
T786C 011:491 JLINK_ReadReg(FPS1)  returns 0x00000000 (0000ms, 0713ms total)
T786C 011:492 JLINK_ReadReg(FPS2)  returns 0x00000000 (0000ms, 0713ms total)
T786C 011:492 JLINK_ReadReg(FPS3)  returns 0x00000000 (0000ms, 0713ms total)
T786C 011:492 JLINK_ReadReg(FPS4)  returns 0x00000000 (0000ms, 0713ms total)
T786C 011:492 JLINK_ReadReg(FPS5)  returns 0x00000000 (0000ms, 0713ms total)
T786C 011:492 JLINK_ReadReg(FPS6)  returns 0x00000000 (0000ms, 0713ms total)
T786C 011:492 JLINK_ReadReg(FPS7)  returns 0x00000000 (0000ms, 0713ms total)
T786C 011:492 JLINK_ReadReg(FPS8)  returns 0x00000000 (0000ms, 0713ms total)
T786C 011:492 JLINK_ReadReg(FPS9)  returns 0x00000000 (0000ms, 0713ms total)
T786C 011:492 JLINK_ReadReg(FPS10)  returns 0x00000000 (0000ms, 0713ms total)
T786C 011:492 JLINK_ReadReg(FPS11)  returns 0x00000000 (0000ms, 0713ms total)
T786C 011:492 JLINK_ReadReg(FPS12)  returns 0x00000000 (0000ms, 0713ms total)
T786C 011:492 JLINK_ReadReg(FPS13)  returns 0x00000000 (0000ms, 0713ms total)
T786C 011:492 JLINK_ReadReg(FPS14)  returns 0x00000000 (0000ms, 0713ms total)
T786C 011:492 JLINK_ReadReg(FPS15)  returns 0x00000000 (0000ms, 0713ms total)
T786C 011:492 JLINK_ReadReg(FPS16)  returns 0x00000000 (0001ms, 0714ms total)
T786C 011:493 JLINK_ReadReg(FPS17)  returns 0x00000000 (0000ms, 0714ms total)
T786C 011:493 JLINK_ReadReg(FPS18)  returns 0x00000000 (0000ms, 0714ms total)
T786C 011:493 JLINK_ReadReg(FPS19)  returns 0x00000000 (0000ms, 0714ms total)
T786C 011:493 JLINK_ReadReg(FPS20)  returns 0x00000000 (0000ms, 0714ms total)
T786C 011:493 JLINK_ReadReg(FPS21)  returns 0x00000000 (0000ms, 0714ms total)
T786C 011:493 JLINK_ReadReg(FPS22)  returns 0x00000000 (0000ms, 0714ms total)
T786C 011:493 JLINK_ReadReg(FPS23)  returns 0x00000000 (0000ms, 0714ms total)
T786C 011:493 JLINK_ReadReg(FPS24)  returns 0x00000000 (0000ms, 0714ms total)
T786C 011:493 JLINK_ReadReg(FPS25)  returns 0x00000000 (0000ms, 0714ms total)
T786C 011:493 JLINK_ReadReg(FPS26)  returns 0x00000000 (0000ms, 0714ms total)
T786C 011:493 JLINK_ReadReg(FPS27)  returns 0x00000000 (0000ms, 0714ms total)
T786C 011:493 JLINK_ReadReg(FPS28)  returns 0x00000000 (0000ms, 0714ms total)
T786C 011:493 JLINK_ReadReg(FPS29)  returns 0x00000000 (0000ms, 0714ms total)
T786C 011:493 JLINK_ReadReg(FPS30)  returns 0x00000000 (0001ms, 0715ms total)
T786C 011:494 JLINK_ReadReg(FPS31)  returns 0x00000000 (0000ms, 0715ms total)
T9050 011:494 JLINK_ReadMem (0x00000000, 0x0004 Bytes, ...) -- CPU_ReadMem(64 bytes @ 0x00000000) -- Updating C cache (64 bytes @ 0x00000000) -- Read from C cache (4 bytes @ 0x00000000) - Data: 68 40 00 20  returns 0x00 (0002ms, 0717ms total)
T9050 011:496 JLINK_ReadMemU32(0xE0001004, 0x0001 Items, ...) -- CPU_ReadMem(4 bytes @ 0xE0001004) - Data: 7D F3 40 04  returns 0x01 (0001ms, 0718ms total)
T9050 011:497 JLINK_ReadMem (0x10001080, 0x0176 Bytes, ...) -- CPU_ReadMem(384 bytes @ 0x10001080) -- Updating C cache (384 bytes @ 0x10001080) -- Read from C cache (374 bytes @ 0x10001080) - Data: EF BE AD DE FF FF FF FF FF FF FF FF FF FF FF FF ...  returns 0x00 (0007ms, 0725ms total)
T9050 011:517 JLINK_ReadMem (0x0000088E, 0x0002 Bytes, ...) -- CPU_ReadMem(64 bytes @ 0x00000880) -- Updating C cache (64 bytes @ 0x00000880) -- Read from C cache (2 bytes @ 0x0000088E) - Data: 00 F0  returns 0x00 (0003ms, 0728ms total)
T9050 011:520 JLINK_ReadMem (0x00000890, 0x003C Bytes, ...) -- CPU_ReadMem(64 bytes @ 0x000008C0) -- Updating C cache (64 bytes @ 0x000008C0) -- Read from C cache (60 bytes @ 0x00000890) - Data: 00 BF FE E7 4F F0 40 70 E1 EE 10 0A 70 47 00 00 ...  returns 0x00 (0001ms, 0729ms total)
T9050 040:064 JLINK_Close() -- CPU_ReadMem(4 bytes @ 0xE0001000) >0x42 TIF> >0x28 TIF> >0x35 TIF> (0006ms, 0735ms total)
T9050 040:064  (0006ms, 0735ms total)
T9050 040:064 Closed (0006ms, 0735ms total)
